{"type":"cmds","vnumber":100,"ctx":{"name":"group","intro_on":true,"intro":"","hex_on":false,"loop_on":true,"loop_ms":100,"loop_count":1,"cmd_hex":"","is_group":true,"down":true,"subCmds":[{"name":"G-code查询","intro_on":true,"intro":"","hex_on":false,"loop_on":true,"loop_ms":100,"loop_count":1,"cmd_hex":"","is_group":true,"down":false,"subCmds":[{"name":"固件信息","intro_on":true,"intro":"","hex_on":false,"loop_on":true,"loop_ms":100,"loop_count":1,"cmd_hex":"4D 31 31 35 0A","is_group":false,"down":false,"subCmds":[]},{"name":"可配置信息","intro_on":true,"intro":"","hex_on":false,"loop_on":true,"loop_ms":100,"loop_count":1,"cmd_hex":"4D 35 30 33 0A","is_group":false,"down":false,"subCmds":[]},{"name":"查询位置","intro_on":true,"intro":"","hex_on":false,"loop_on":true,"loop_ms":100,"loop_count":1,"cmd_hex":"4D 31 31 34 20 52 0A","is_group":false,"down":false,"subCmds":[]},{"name":"限位开关状态","intro_on":true,"intro":"","hex_on":false,"loop_on":true,"loop_ms":100,"loop_count":1,"cmd_hex":"4D 31 31 39 0A","is_group":false,"down":false,"subCmds":[]}]},{"name":"C-code运动","intro_on":true,"intro":"","hex_on":false,"loop_on":true,"loop_ms":100,"loop_count":1,"cmd_hex":"","is_group":true,"down":false,"subCmds":[{"name":"XY归零","intro_on":true,"intro":"","hex_on":false,"loop_on":true,"loop_ms":100,"loop_count":1,"cmd_hex":"47 32 38 20 58 20 59 0A","is_group":false,"down":false,"subCmds":[]},{"name":"移动到(20,0)","intro_on":true,"intro":"","hex_on":false,"loop_on":true,"loop_ms":100,"loop_count":1,"cmd_hex":"47 30 20 5A 30 0A 47 30 20 58 32 30 20 59 30 0A","is_group":false,"down":false,"subCmds":[]},{"name":"移动到(10,10)","intro_on":true,"intro":"","hex_on":false,"loop_on":true,"loop_ms":100,"loop_count":1,"cmd_hex":"47 30 20 5A 30 0A 47 30 20 58 31 30 20 59 31 30 0A","is_group":false,"down":false,"subCmds":[]},{"name":"移动到(100,100)","intro_on":true,"intro":"","hex_on":false,"loop_on":true,"loop_ms":100,"loop_count":1,"cmd_hex":"47 30 20 5A 30 0A 47 30 20 58 31 30 30 20 59 31 30 30 0A","is_group":false,"down":false,"subCmds":[]},{"name":"移动到(100,0)","intro_on":true,"intro":"","hex_on":false,"loop_on":true,"loop_ms":100,"loop_count":1,"cmd_hex":"47 30 20 5A 30 0A 47 30 20 58 31 30 30 20 59 30 0A","is_group":false,"down":false,"subCmds":[]},{"name":"XYZ归零","intro_on":true,"intro":"","hex_on":false,"loop_on":true,"loop_ms":100,"loop_count":1,"cmd_hex":"47 32 38 0A","is_group":false,"down":false,"subCmds":[]}]},{"name":"Modbus写","intro_on":true,"intro":"","hex_on":false,"loop_on":true,"loop_ms":100,"loop_count":1,"cmd_hex":"","is_group":true,"down":true,"subCmds":[{"name":"XYZ三轴归零","intro_on":true,"intro":"","hex_on":true,"loop_on":true,"loop_ms":100,"loop_count":1,"cmd_hex":"14 06 00 01 00 01 1B 0F ","is_group":false,"down":false,"subCmds":[]},{"name":"移动到1瓶","intro_on":true,"intro":"","hex_on":true,"loop_on":true,"loop_ms":100,"loop_count":1,"cmd_hex":"14 06 00 02 00 01 EB 0F ","is_group":false,"down":false,"subCmds":[]},{"name":"移动到25瓶","intro_on":true,"intro":"","hex_on":true,"loop_on":true,"loop_ms":100,"loop_count":1,"cmd_hex":"14 06 00 02 00 19 EB 05 ","is_group":false,"down":false,"subCmds":[]},{"name":"移动到废液瓶","intro_on":true,"intro":"","hex_on":true,"loop_on":true,"loop_ms":100,"loop_count":1,"cmd_hex":"14 06 00 02 00 65 EA E4 ","is_group":false,"down":false,"subCmds":[]},{"name":"针头抬起","intro_on":true,"intro":"","hex_on":true,"loop_on":true,"loop_ms":100,"loop_count":1,"cmd_hex":"14 06 00 03 00 01 BA CF ","is_group":false,"down":false,"subCmds":[]},{"name":"针头落下","intro_on":true,"intro":"","hex_on":true,"loop_on":true,"loop_ms":100,"loop_count":1,"cmd_hex":"14 06 00 03 00 02 FA CE ","is_group":false,"down":false,"subCmds":[]}]},{"name":"Modbus读","intro_on":true,"intro":"","hex_on":false,"loop_on":true,"loop_ms":100,"loop_count":1,"cmd_hex":"","is_group":true,"down":true,"subCmds":[{"name":"是否归零","intro_on":true,"intro":"","hex_on":true,"loop_on":true,"loop_ms":100,"loop_count":1,"cmd_hex":"14 03 00 0B 00 01 F7 0D ","is_group":false,"down":false,"subCmds":[]},{"name":"XY位置","intro_on":true,"intro":"","hex_on":true,"loop_on":true,"loop_ms":100,"loop_count":1,"cmd_hex":"14 03 00 0C 00 01 46 CC ","is_group":false,"down":false,"subCmds":[]},{"name":"针头高度","intro_on":true,"intro":"","hex_on":true,"loop_on":true,"loop_ms":100,"loop_count":1,"cmd_hex":"14 03 00 0D 00 01 17 0C ","is_group":false,"down":false,"subCmds":[]}]}]}}